
T68D4 000:287 SEGGER J-Link V4.96d Log File (0001ms, 0265ms total)
T68D4 000:287 DLL Compiled: Jan 29 2015 11:45:37 (0001ms, 0265ms total)
T68D4 000:287 Logging started @ 2016-11-04 23:39 (0001ms, 0265ms total)
T68D4 000:288 JLINK_SetWarnOutHandler(...) (0000ms, 0265ms total)
T68D4 000:288 JLINK_OpenEx(...)
Firmware: J-Link ARM V8 compiled Nov 28 2014 13:44:46
Hardware: V8.00
S/N: 304230680
Feature(s): RDI,FlashDL,FlashBP,JFlash,GDBFULL  returns O.K. (0262ms, 0527ms total)
T68D4 000:550 JLINK_SetErrorOutHandler(...) (0000ms, 0527ms total)
T68D4 000:550 JLINK_ExecCommand("ProjectFile = "E:\ÏîÄ¿\IOV\source\USER\JLinkSettings.ini"", ...)  returns 0x00 (0001ms, 0528ms total)
T68D4 000:554 JLINK_ExecCommand("Device = STM32F103ZE", ...)Device "STM32F103ZE" selected.  returns 0x00 (0009ms, 0537ms total)
T68D4 000:563 JLINK_ExecCommand("DisableConnectionTimeout", ...)  returns 0x01 (0000ms, 0537ms total)
T68D4 000:563 JLINK_GetHardwareVersion()  returns 0x13880 (0000ms, 0537ms total)
T68D4 000:563 JLINK_GetDLLVersion()  returns 49604 (0000ms, 0537ms total)
T68D4 000:563 JLINK_GetFirmwareString(...) (0000ms, 0537ms total)
T68D4 000:635 JLINK_GetDLLVersion()  returns 49604 (0000ms, 0537ms total)
T68D4 000:635 JLINK_GetCompileDateTime() (0000ms, 0537ms total)
T68D4 000:637 JLINK_GetFirmwareString(...) (0000ms, 0537ms total)
T68D4 000:638 JLINK_GetHardwareVersion()  returns 0x13880 (0000ms, 0537ms total)
T68D4 000:642 JLINK_TIF_Select(JLINKARM_TIF_JTAG)  returns 0x00 (0001ms, 0538ms total)
T68D4 000:643 JLINK_SetSpeed(20000) (0000ms, 0538ms total)
T68D4 000:643 JLINK_GetIdData(...) >0x2F8 JTAG>TotalIRLen = 9, IRPrint = 0x0011 >0x30 JTAG> >0x210 JTAG> >0x40 JTAG> >0x40 JTAG> >0x40 JTAG> >0x30 JTAG> >0x40 JTAG> >0x40 JTAG> >0x40 JTAG> >0x40 JTAG> >0x40 JTAG> >0x40 JTAG> >0x40 JTAG> >0x40 JTAG> >0x2F8 JTAG>TotalIRLen = 9, IRPrint = 0x0011 >0x30 JTAG> >0x210 JTAG> >0x70 JTAG> >0x40 JTAG> >0x40 JTAG> >0x40 JTAG> >0x50 JTAG> >0x80 JTAG> >0x40 JTAG> >0x30 JTAG> >0x40 JTAG> >0x40 JTAG> >0x30 JTAG> >0x40 JTAG> >0x50 JTAG>
Found Cortex-M3 r1p1, Little endian. -- CPU_WriteMem(4 bytes @ 0xE0002000) -- CPU_ReadMem(4 bytes @ 0xE000EDF0) -- CPU_ReadMem(4 bytes @ 0xE0002000)FPUnit: 6 code (BP) slots and 2 literal slots -- CPU_ReadMem(4 bytes @ 0xE000EDFC) -- CPU_ReadMem(4 bytes @ 0xE0001000) -- CPU_WriteMem(4 bytes @ 0xE0001000) -- CPU_ReadMem(4 bytes @ 0xE000ED88) -- CPU_WriteMem(4 bytes @ 0xE000ED88) -- CPU_ReadMem(4 bytes @ 0xE000ED88) -- CPU_WriteMem(4 bytes @ 0xE000ED88) -- CPU_ReadMem(4 bytes @ 0xE00FF010)TPIU fitted.
 -- CPU_ReadMem(4 bytes @ 0xE00FF014)ETM fitted. -- CPU_ReadMem(4 bytes @ 0xE00FF018) ScanLen=9 NumDevices=2 aId[0]=0x3BA00477 aIrRead[0]=0 aScanLen[0]=0 aScanRead[0]=0 (0024ms, 0562ms total)
T68D4 000:667 JLINK_JTAG_GetDeviceID(DeviceIndex = 0)  returns 0x3BA00477 (0000ms, 0562ms total)
T68D4 000:667 JLINK_JTAG_GetDeviceInfo(DeviceIndex = 0)  returns 0x00 (0000ms, 0562ms total)
T68D4 000:667 JLINK_JTAG_GetDeviceID(DeviceIndex = 1)  returns 0x6414041 (0000ms, 0562ms total)
T68D4 000:667 JLINK_JTAG_GetDeviceInfo(DeviceIndex = 1)  returns 0x00 (0000ms, 0562ms total)
T68D4 000:667 JLINK_GetDLLVersion()  returns 49604 (0000ms, 0562ms total)
T68D4 000:667 JLINK_CORE_GetFound()  returns 0x30000FF (0001ms, 0563ms total)
T68D4 000:668 JLINK_GetDebugInfo(0x100) -- Value=0xE00FF003  returns 0x00 (0000ms, 0563ms total)
T68D4 000:669 JLINK_ReadMem (0xE00FF000, 0x0020 Bytes, ...) -- CPU is running -- CPU_ReadMem(32 bytes @ 0xE00FF000) - Data: 03 F0 F0 FF 03 20 F0 FF 03 30 F0 FF 03 10 F0 FF ...  returns 0x00 (0000ms, 0563ms total)
T68D4 000:669 JLINK_ReadMem (0xE000EFF0, 0x0010 Bytes, ...) -- CPU is running -- CPU_ReadMem(16 bytes @ 0xE000EFF0) - Data: 0D 00 00 00 E0 00 00 00 05 00 00 00 B1 00 00 00  returns 0x00 (0001ms, 0564ms total)
T68D4 000:670 JLINK_ReadMem (0xE000EFD0, 0x0020 Bytes, ...) -- CPU is running -- CPU_ReadMem(32 bytes @ 0xE000EFD0) - Data: 04 00 00 00 00 00 00 00 00 00 00 00 00 00 00 00 ...  returns 0x00 (0000ms, 0564ms total)
T68D4 000:670 JLINK_ReadMem (0xE0001FF0, 0x0010 Bytes, ...) -- CPU is running -- CPU_ReadMem(16 bytes @ 0xE0001FF0) - Data: 0D 00 00 00 E0 00 00 00 05 00 00 00 B1 00 00 00  returns 0x00 (0001ms, 0565ms total)
T68D4 000:671 JLINK_ReadMem (0xE0001FD0, 0x0020 Bytes, ...) -- CPU is running -- CPU_ReadMem(32 bytes @ 0xE0001FD0) - Data: 04 00 00 00 00 00 00 00 00 00 00 00 00 00 00 00 ...  returns 0x00 (0000ms, 0565ms total)
T68D4 000:671 JLINK_ReadMem (0xE0002FF0, 0x0010 Bytes, ...) -- CPU is running -- CPU_ReadMem(16 bytes @ 0xE0002FF0) - Data: 0D 00 00 00 E0 00 00 00 05 00 00 00 B1 00 00 00  returns 0x00 (0000ms, 0565ms total)
T68D4 000:671 JLINK_ReadMem (0xE0002FD0, 0x0020 Bytes, ...) -- CPU is running -- CPU_ReadMem(32 bytes @ 0xE0002FD0) - Data: 04 00 00 00 00 00 00 00 00 00 00 00 00 00 00 00 ...  returns 0x00 (0001ms, 0566ms total)
T68D4 000:672 JLINK_ReadMem (0xE0000FF0, 0x0010 Bytes, ...) -- CPU is running -- CPU_ReadMem(16 bytes @ 0xE0000FF0) - Data: 0D 00 00 00 E0 00 00 00 05 00 00 00 B1 00 00 00  returns 0x00 (0000ms, 0566ms total)
T68D4 000:672 JLINK_ReadMem (0xE0000FD0, 0x0020 Bytes, ...) -- CPU is running -- CPU_ReadMem(32 bytes @ 0xE0000FD0) - Data: 04 00 00 00 00 00 00 00 00 00 00 00 00 00 00 00 ...  returns 0x00 (0001ms, 0567ms total)
T68D4 000:673 JLINK_ReadMem (0xE0040FF0, 0x0010 Bytes, ...) -- CPU is running -- CPU_ReadMem(16 bytes @ 0xE0040FF0) - Data: 0D 00 00 00 90 00 00 00 05 00 00 00 B1 00 00 00  returns 0x00 (0000ms, 0567ms total)
T68D4 000:673 JLINK_ReadMem (0xE0040FD0, 0x0020 Bytes, ...) -- CPU is running -- CPU_ReadMem(32 bytes @ 0xE0040FD0) - Data: 04 00 00 00 00 00 00 00 00 00 00 00 00 00 00 00 ...  returns 0x00 (0001ms, 0568ms total)
T68D4 000:674 JLINK_ReadMem (0xE0041FF0, 0x0010 Bytes, ...) -- CPU is running -- CPU_ReadMem(16 bytes @ 0xE0041FF0) - Data: 0D 00 00 00 90 00 00 00 05 00 00 00 B1 00 00 00  returns 0x00 (0000ms, 0568ms total)
T68D4 000:674 JLINK_ReadMem (0xE0041FD0, 0x0020 Bytes, ...) -- CPU is running -- CPU_ReadMem(32 bytes @ 0xE0041FD0) - Data: 04 00 00 00 00 00 00 00 00 00 00 00 00 00 00 00 ...  returns 0x00 (0001ms, 0569ms total)
T68D4 000:675 JLINK_ReadMemU32(0xE000ED00, 0x0001 Items, ...) -- CPU is running -- CPU_ReadMem(4 bytes @ 0xE000ED00) - Data: 31 C2 1F 41  returns 0x01 (0000ms, 0569ms total)
T68D4 000:675 JLINK_SetResetType(JLINKARM_RESET_TYPE_NORMAL)  returns JLINKARM_RESET_TYPE_NORMAL (0000ms, 0569ms total)
T68D4 000:675 JLINK_Reset() -- CPU is running -- CPU_WriteMem(4 bytes @ 0xE000EDF0) -- CPU is running -- CPU_WriteMem(4 bytes @ 0xE000EDFC) -- CPU is running -- CPU_WriteMem(4 bytes @ 0xE000ED0C) -- CPU is running -- CPU_ReadMem(4 bytes @ 0xE000EDF0) -- CPU is running -- CPU_ReadMem(4 bytes @ 0xE000EDF0) -- CPU is running -- CPU_WriteMem(4 bytes @ 0xE000EDF0) -- CPU is running -- CPU_WriteMem(4 bytes @ 0xE000EDFC) -- CPU is running -- CPU_ReadMem(4 bytes @ 0xE000EDF0) >0x80 JTAG> >0x40 JTAG> >0x30 JTAG>
 >0x40 JTAG> >0x50 JTAG> >0x40 JTAG> -- CPU_WriteMem(4 bytes @ 0xE000EDFC) -- CPU_WriteMem(4 bytes @ 0xE0001028) -- CPU_WriteMem(4 bytes @ 0xE0001038) -- CPU_WriteMem(4 bytes @ 0xE0001048) -- CPU_WriteMem(4 bytes @ 0xE0001058) -- CPU_WriteMem(4 bytes @ 0xE0002000) -- CPU_ReadMem(4 bytes @ 0xE000EDFC) -- CPU_ReadMem(4 bytes @ 0xE0001000) (0021ms, 0590ms total)
T68D4 000:696 JLINK_Halt()  returns 0x00 (0000ms, 0590ms total)
T68D4 000:696 JLINK_IsHalted()  returns TRUE (0000ms, 0590ms total)
T68D4 000:696 JLINK_ReadMemU32(0xE000EDF0, 0x0001 Items, ...) -- CPU_ReadMem(4 bytes @ 0xE000EDF0) - Data: 03 00 03 00  returns 0x01 (0000ms, 0590ms total)
T68D4 000:696 JLINK_WriteU32(0xE000EDF0, 0xA05F0003) -- CPU_WriteMem(4 bytes @ 0xE000EDF0)  returns 0x00 (0000ms, 0590ms total)
T68D4 000:696 JLINK_WriteU32(0xE000EDFC, 0x01000000) -- CPU_WriteMem(4 bytes @ 0xE000EDFC)  returns 0x00 (0001ms, 0591ms total)
T68D4 000:702 JLINK_GetHWStatus(...)  returns 0x00 (0000ms, 0591ms total)
T68D4 000:705 JLINK_GetNumBPUnits(Type = 0xFFFFFF00)  returns 0x06 (0000ms, 0591ms total)
T68D4 000:705 JLINK_GetNumBPUnits(Type = 0xF0)  returns 0x2000 (0000ms, 0591ms total)
T68D4 000:705 JLINK_GetNumWPUnits()  returns 0x04 (0000ms, 0591ms total)
T68D4 000:708 JLINK_GetSpeed()  returns 0x2EE0 (0000ms, 0591ms total)
T68D4 000:710 JLINK_ReadMemU32(0xE000E004, 0x0001 Items, ...) -- CPU_ReadMem(4 bytes @ 0xE000E004) - Data: 01 00 00 00  returns 0x01 (0001ms, 0592ms total)
T68D4 000:711 JLINK_ReadMemU32(0xE000E004, 0x0001 Items, ...) -- CPU_ReadMem(4 bytes @ 0xE000E004) - Data: 01 00 00 00  returns 0x01 (0000ms, 0592ms total)
T68D4 000:711 JLINK_WriteMem(0xE0001000, 0x001C Bytes, ...) - Data: 01 00 00 00 00 00 00 00 00 00 00 00 00 00 00 00 ... -- CPU_WriteMem(28 bytes @ 0xE0001000)  returns 0x1C (0001ms, 0593ms total)
T68D4 000:712 JLINK_ReadMem (0xE0001000, 0x001C Bytes, ...) -- CPU_ReadMem(28 bytes @ 0xE0001000) - Data: 01 00 00 40 00 00 00 00 00 00 00 00 00 00 00 00 ...  returns 0x00 (0001ms, 0594ms total)
T68D4 000:713 JLINK_Halt()  returns 0x00 (0000ms, 0594ms total)
T68D4 000:713 JLINK_IsHalted()  returns TRUE (0000ms, 0594ms total)
T68D4 000:715 JLINK_WriteMem(0x20000000, 0x0164 Bytes, ...) - Data: 00 BE 0A E0 0D 78 2D 06 68 40 08 24 40 00 00 D3 ... -- CPU_WriteMem(356 bytes @ 0x20000000)  returns 0x164 (0002ms, 0596ms total)
T68D4 000:717 JLINK_WriteReg(R0, 0x08000000)  returns 0x00 (0000ms, 0596ms total)
T68D4 000:717 JLINK_WriteReg(R1, 0x00B71B00)  returns 0x00 (0000ms, 0596ms total)
T68D4 000:717 JLINK_WriteReg(R2, 0x00000001)  returns 0x00 (0000ms, 0596ms total)
T68D4 000:717 JLINK_WriteReg(R3, 0x00000000)  returns 0x00 (0000ms, 0596ms total)
T68D4 000:717 JLINK_WriteReg(R4, 0x00000000)  returns 0x00 (0000ms, 0596ms total)
T68D4 000:717 JLINK_WriteReg(R5, 0x00000000)  returns 0x00 (0000ms, 0596ms total)
T68D4 000:717 JLINK_WriteReg(R6, 0x00000000)  returns 0x00 (0000ms, 0596ms total)
T68D4 000:717 JLINK_WriteReg(R7, 0x00000000)  returns 0x00 (0000ms, 0596ms total)
T68D4 000:717 JLINK_WriteReg(R8, 0x00000000)  returns 0x00 (0000ms, 0596ms total)
T68D4 000:717 JLINK_WriteReg(R9, 0x20000160)  returns 0x00 (0000ms, 0596ms total)
T68D4 000:717 JLINK_WriteReg(R10, 0x00000000)  returns 0x00 (0000ms, 0596ms total)
T68D4 000:717 JLINK_WriteReg(R11, 0x00000000)  returns 0x00 (0000ms, 0596ms total)
T68D4 000:717 JLINK_WriteReg(R12, 0x00000000)  returns 0x00 (0000ms, 0596ms total)
T68D4 000:717 JLINK_WriteReg(R13 (SP), 0x20001000)  returns 0x00 (0000ms, 0596ms total)
T68D4 000:717 JLINK_WriteReg(R14, 0x20000001)  returns 0x00 (0000ms, 0596ms total)
T68D4 000:717 JLINK_WriteReg(R15 (PC), 0x20000038)  returns 0x00 (0000ms, 0596ms total)
T68D4 000:717 JLINK_WriteReg(XPSR, 0x01000000)  returns 0x00 (0000ms, 0596ms total)
T68D4 000:717 JLINK_WriteReg(MSP, 0x20001000)  returns 0x00 (0000ms, 0596ms total)
T68D4 000:717 JLINK_WriteReg(PSP, 0x20001000)  returns 0x00 (0000ms, 0596ms total)
T68D4 000:717 JLINK_WriteReg(CFBP, 0x00000000)  returns 0x00 (0000ms, 0596ms total)
T68D4 000:717 JLINK_SetBPEx(Addr = 0x20000000, Type = 0xFFFFFFF2) -- CPU_ReadMem(2 bytes @ 0x20000000)  returns 0x00000001 (0001ms, 0597ms total)
T68D4 000:718 JLINK_Go() -- CPU_WriteMem(2 bytes @ 0x20000000) -- CPU_WriteMem(4 bytes @ 0xE0002008) -- CPU_WriteMem(4 bytes @ 0xE000200C) -- CPU_WriteMem(4 bytes @ 0xE0002010) -- CPU_WriteMem(4 bytes @ 0xE0002014) -- CPU_WriteMem(4 bytes @ 0xE0002018) -- CPU_WriteMem(4 bytes @ 0xE000201C) -- CPU_WriteMem(4 bytes @ 0xE0001004) (0003ms, 0600ms total)
T68D4 000:721 JLINK_IsHalted() -- CPU_ReadMem(2 bytes @ 0x20000000)  returns TRUE (0002ms, 0602ms total)
T68D4 000:723 JLINK_ReadReg(R15 (PC))  returns 0x20000000 (0000ms, 0600ms total)
T68D4 000:723 JLINK_ClrBPEx(BPHandle = 0x00000001)  returns 0x00 (0000ms, 0600ms total)
T68D4 000:723 JLINK_ReadReg(R0)  returns 0x00000000 (0000ms, 0600ms total)
T68D4 000:724 JLINK_WriteReg(R0, 0x08000000)  returns 0x00 (0000ms, 0600ms total)
T68D4 000:724 JLINK_WriteReg(R1, 0x00B71B00)  returns 0x00 (0000ms, 0600ms total)
T68D4 000:724 JLINK_WriteReg(R2, 0x00000001)  returns 0x00 (0000ms, 0600ms total)
T68D4 000:724 JLINK_WriteReg(R3, 0x00000000)  returns 0x00 (0000ms, 0600ms total)
T68D4 000:724 JLINK_WriteReg(R4, 0x00000000)  returns 0x00 (0000ms, 0600ms total)
T68D4 000:724 JLINK_WriteReg(R5, 0x00000000)  returns 0x00 (0000ms, 0600ms total)
T68D4 000:724 JLINK_WriteReg(R6, 0x00000000)  returns 0x00 (0000ms, 0600ms total)
T68D4 000:724 JLINK_WriteReg(R7, 0x00000000)  returns 0x00 (0000ms, 0600ms total)
T68D4 000:724 JLINK_WriteReg(R8, 0x00000000)  returns 0x00 (0000ms, 0600ms total)
T68D4 000:724 JLINK_WriteReg(R9, 0x20000160)  returns 0x00 (0000ms, 0600ms total)
T68D4 000:724 JLINK_WriteReg(R10, 0x00000000)  returns 0x00 (0000ms, 0600ms total)
T68D4 000:724 JLINK_WriteReg(R11, 0x00000000)  returns 0x00 (0000ms, 0600ms total)
T68D4 000:724 JLINK_WriteReg(R12, 0x00000000)  returns 0x00 (0000ms, 0600ms total)
T68D4 000:724 JLINK_WriteReg(R13 (SP), 0x20001000)  returns 0x00 (0000ms, 0600ms total)
T68D4 000:724 JLINK_WriteReg(R14, 0x20000001)  returns 0x00 (0000ms, 0600ms total)
T68D4 000:724 JLINK_WriteReg(R15 (PC), 0x2000007C)  returns 0x00 (0000ms, 0600ms total)
T68D4 000:724 JLINK_WriteReg(XPSR, 0x01000000)  returns 0x00 (0000ms, 0600ms total)
T68D4 000:724 JLINK_WriteReg(MSP, 0x20001000)  returns 0x00 (0000ms, 0600ms total)
T68D4 000:724 JLINK_WriteReg(PSP, 0x20001000)  returns 0x00 (0000ms, 0600ms total)
T68D4 000:724 JLINK_WriteReg(CFBP, 0x00000000)  returns 0x00 (0000ms, 0600ms total)
T68D4 000:724 JLINK_SetBPEx(Addr = 0x20000000, Type = 0xFFFFFFF2)  returns 0x00000002 (0000ms, 0600ms total)
T68D4 000:724 JLINK_Go() (0001ms, 0601ms total)
T68D4 000:725 JLINK_IsHalted()  returns FALSE (0000ms, 0601ms total)
T68D4 000:768 JLINK_IsHalted() -- CPU_ReadMem(2 bytes @ 0x20000000)  returns TRUE (0002ms, 0603ms total)
T68D4 000:770 JLINK_ReadReg(R15 (PC))  returns 0x20000000 (0000ms, 0601ms total)
T68D4 000:770 JLINK_ClrBPEx(BPHandle = 0x00000002)  returns 0x00 (0000ms, 0601ms total)
T68D4 000:770 JLINK_ReadReg(R0)  returns 0x00000000 (0000ms, 0601ms total)
T68D4 000:822 JLINK_WriteReg(R0, 0x00000001)  returns 0x00 (0000ms, 0601ms total)
T68D4 000:822 JLINK_WriteReg(R1, 0x00B71B00)  returns 0x00 (0000ms, 0601ms total)
T68D4 000:822 JLINK_WriteReg(R2, 0x00000001)  returns 0x00 (0000ms, 0601ms total)
T68D4 000:822 JLINK_WriteReg(R3, 0x00000000)  returns 0x00 (0000ms, 0601ms total)
T68D4 000:822 JLINK_WriteReg(R4, 0x00000000)  returns 0x00 (0000ms, 0601ms total)
T68D4 000:822 JLINK_WriteReg(R5, 0x00000000)  returns 0x00 (0000ms, 0601ms total)
T68D4 000:822 JLINK_WriteReg(R6, 0x00000000)  returns 0x00 (0000ms, 0601ms total)
T68D4 000:822 JLINK_WriteReg(R7, 0x00000000)  returns 0x00 (0000ms, 0601ms total)
T68D4 000:822 JLINK_WriteReg(R8, 0x00000000)  returns 0x00 (0000ms, 0601ms total)
T68D4 000:822 JLINK_WriteReg(R9, 0x20000160)  returns 0x00 (0000ms, 0601ms total)
T68D4 000:822 JLINK_WriteReg(R10, 0x00000000)  returns 0x00 (0000ms, 0601ms total)
T68D4 000:822 JLINK_WriteReg(R11, 0x00000000)  returns 0x00 (0000ms, 0601ms total)
T68D4 000:822 JLINK_WriteReg(R12, 0x00000000)  returns 0x00 (0000ms, 0601ms total)
T68D4 000:822 JLINK_WriteReg(R13 (SP), 0x20001000)  returns 0x00 (0000ms, 0601ms total)
T68D4 000:822 JLINK_WriteReg(R14, 0x20000001)  returns 0x00 (0000ms, 0601ms total)
T68D4 000:822 JLINK_WriteReg(R15 (PC), 0x2000006A)  returns 0x00 (0000ms, 0601ms total)
T68D4 000:822 JLINK_WriteReg(XPSR, 0x01000000)  returns 0x00 (0000ms, 0601ms total)
T68D4 000:822 JLINK_WriteReg(MSP, 0x20001000)  returns 0x00 (0000ms, 0601ms total)
T68D4 000:822 JLINK_WriteReg(PSP, 0x20001000)  returns 0x00 (0000ms, 0601ms total)
T68D4 000:822 JLINK_WriteReg(CFBP, 0x00000000)  returns 0x00 (0000ms, 0601ms total)
T68D4 000:822 JLINK_SetBPEx(Addr = 0x20000000, Type = 0xFFFFFFF2)  returns 0x00000003 (0000ms, 0601ms total)
T68D4 000:822 JLINK_Go() (0001ms, 0602ms total)
T68D4 000:823 JLINK_IsHalted() -- CPU_ReadMem(2 bytes @ 0x20000000)  returns TRUE (0002ms, 0604ms total)
T68D4 000:825 JLINK_ReadReg(R15 (PC))  returns 0x20000000 (0000ms, 0602ms total)
T68D4 000:825 JLINK_ClrBPEx(BPHandle = 0x00000003)  returns 0x00 (0000ms, 0602ms total)
T68D4 000:825 JLINK_ReadReg(R0)  returns 0x00000000 (0000ms, 0602ms total)
T68D4 000:828 JLINK_WriteMem(0x20000000, 0x0164 Bytes, ...) - Data: 00 BE 0A E0 0D 78 2D 06 68 40 08 24 40 00 00 D3 ... -- CPU_WriteMem(356 bytes @ 0x20000000)  returns 0x164 (0002ms, 0604ms total)
T68D4 000:830 JLINK_WriteReg(R0, 0x08000000)  returns 0x00 (0000ms, 0604ms total)
T68D4 000:830 JLINK_WriteReg(R1, 0x00B71B00)  returns 0x00 (0000ms, 0604ms total)
T68D4 000:830 JLINK_WriteReg(R2, 0x00000002)  returns 0x00 (0000ms, 0604ms total)
T68D4 000:830 JLINK_WriteReg(R3, 0x00000000)  returns 0x00 (0000ms, 0604ms total)
T68D4 000:830 JLINK_WriteReg(R4, 0x00000000)  returns 0x00 (0000ms, 0604ms total)
T68D4 000:830 JLINK_WriteReg(R5, 0x00000000)  returns 0x00 (0000ms, 0604ms total)
T68D4 000:830 JLINK_WriteReg(R6, 0x00000000)  returns 0x00 (0000ms, 0604ms total)
T68D4 000:830 JLINK_WriteReg(R7, 0x00000000)  returns 0x00 (0000ms, 0604ms total)
T68D4 000:830 JLINK_WriteReg(R8, 0x00000000)  returns 0x00 (0000ms, 0604ms total)
T68D4 000:830 JLINK_WriteReg(R9, 0x20000160)  returns 0x00 (0000ms, 0604ms total)
T68D4 000:830 JLINK_WriteReg(R10, 0x00000000)  returns 0x00 (0000ms, 0604ms total)
T68D4 000:830 JLINK_WriteReg(R11, 0x00000000)  returns 0x00 (0000ms, 0604ms total)
T68D4 000:830 JLINK_WriteReg(R12, 0x00000000)  returns 0x00 (0000ms, 0604ms total)
T68D4 000:830 JLINK_WriteReg(R13 (SP), 0x20001000)  returns 0x00 (0000ms, 0604ms total)
T68D4 000:830 JLINK_WriteReg(R14, 0x20000001)  returns 0x00 (0000ms, 0604ms total)
T68D4 000:830 JLINK_WriteReg(R15 (PC), 0x20000038)  returns 0x00 (0000ms, 0604ms total)
T68D4 000:830 JLINK_WriteReg(XPSR, 0x01000000)  returns 0x00 (0000ms, 0604ms total)
T68D4 000:830 JLINK_WriteReg(MSP, 0x20001000)  returns 0x00 (0000ms, 0604ms total)
T68D4 000:830 JLINK_WriteReg(PSP, 0x20001000)  returns 0x00 (0000ms, 0604ms total)
T68D4 000:830 JLINK_WriteReg(CFBP, 0x00000000)  returns 0x00 (0000ms, 0604ms total)
T68D4 000:830 JLINK_SetBPEx(Addr = 0x20000000, Type = 0xFFFFFFF2) -- CPU_ReadMem(2 bytes @ 0x20000000)  returns 0x00000004 (0001ms, 0605ms total)
T68D4 000:831 JLINK_Go() -- CPU_WriteMem(2 bytes @ 0x20000000) (0001ms, 0606ms total)
T68D4 000:832 JLINK_IsHalted() -- CPU_ReadMem(2 bytes @ 0x20000000)  returns TRUE (0002ms, 0608ms total)
T68D4 000:834 JLINK_ReadReg(R15 (PC))  returns 0x20000000 (0000ms, 0606ms total)
T68D4 000:834 JLINK_ClrBPEx(BPHandle = 0x00000004)  returns 0x00 (0000ms, 0606ms total)
T68D4 000:834 JLINK_ReadReg(R0)  returns 0x00000000 (0000ms, 0606ms total)
T68D4 000:835 JLINK_WriteMem(0x20000164, 0x0400 Bytes, ...) - Data: B8 0E 00 20 2D 02 00 08 31 02 00 08 33 02 00 08 ... -- CPU_WriteMem(1024 bytes @ 0x20000164)  returns 0x400 (0005ms, 0611ms total)
T68D4 000:840 JLINK_WriteReg(R0, 0x08000000)  returns 0x00 (0000ms, 0611ms total)
T68D4 000:840 JLINK_WriteReg(R1, 0x00000400)  returns 0x00 (0000ms, 0611ms total)
T68D4 000:840 JLINK_WriteReg(R2, 0x20000164)  returns 0x00 (0000ms, 0611ms total)
T68D4 000:840 JLINK_WriteReg(R3, 0x00000000)  returns 0x00 (0000ms, 0611ms total)
T68D4 000:840 JLINK_WriteReg(R4, 0x00000000)  returns 0x00 (0000ms, 0611ms total)
T68D4 000:840 JLINK_WriteReg(R5, 0x00000000)  returns 0x00 (0000ms, 0611ms total)
T68D4 000:840 JLINK_WriteReg(R6, 0x00000000)  returns 0x00 (0000ms, 0611ms total)
T68D4 000:840 JLINK_WriteReg(R7, 0x00000000)  returns 0x00 (0000ms, 0611ms total)
T68D4 000:840 JLINK_WriteReg(R8, 0x00000000)  returns 0x00 (0000ms, 0611ms total)
T68D4 000:840 JLINK_WriteReg(R9, 0x20000160)  returns 0x00 (0000ms, 0611ms total)
T68D4 000:840 JLINK_WriteReg(R10, 0x00000000)  returns 0x00 (0000ms, 0611ms total)
T68D4 000:840 JLINK_WriteReg(R11, 0x00000000)  returns 0x00 (0000ms, 0611ms total)
T68D4 000:840 JLINK_WriteReg(R12, 0x00000000)  returns 0x00 (0000ms, 0611ms total)
T68D4 000:840 JLINK_WriteReg(R13 (SP), 0x20001000)  returns 0x00 (0000ms, 0611ms total)
T68D4 000:840 JLINK_WriteReg(R14, 0x20000001)  returns 0x00 (0000ms, 0611ms total)
T68D4 000:840 JLINK_WriteReg(R15 (PC), 0x200000F4)  returns 0x00 (0000ms, 0611ms total)
T68D4 000:840 JLINK_WriteReg(XPSR, 0x01000000)  returns 0x00 (0000ms, 0611ms total)
T68D4 000:840 JLINK_WriteReg(MSP, 0x20001000)  returns 0x00 (0000ms, 0611ms total)
T68D4 000:840 JLINK_WriteReg(PSP, 0x20001000)  returns 0x00 (0000ms, 0611ms total)
T68D4 000:840 JLINK_WriteReg(CFBP, 0x00000000)  returns 0x00 (0000ms, 0611ms total)
T68D4 000:840 JLINK_SetBPEx(Addr = 0x20000000, Type = 0xFFFFFFF2)  returns 0x00000005 (0000ms, 0611ms total)
T68D4 000:840 JLINK_Go() (0001ms, 0612ms total)
T68D4 000:841 JLINK_IsHalted()  returns FALSE (0000ms, 0612ms total)
T68D4 000:848 JLINK_IsHalted()  returns FALSE (0000ms, 0612ms total)
T68D4 000:849 JLINK_IsHalted()  returns FALSE (0000ms, 0612ms total)
T68D4 000:851 JLINK_IsHalted()  returns FALSE (0000ms, 0612ms total)
T68D4 000:853 JLINK_IsHalted()  returns FALSE (0000ms, 0612ms total)
T68D4 000:854 JLINK_IsHalted()  returns FALSE (0000ms, 0612ms total)
T68D4 000:856 JLINK_IsHalted()  returns FALSE (0000ms, 0612ms total)
T68D4 000:858 JLINK_IsHalted()  returns FALSE (0000ms, 0612ms total)
T68D4 000:859 JLINK_IsHalted()  returns FALSE (0000ms, 0612ms total)
T68D4 000:861 JLINK_IsHalted()  returns FALSE (0000ms, 0612ms total)
T68D4 000:863 JLINK_IsHalted()  returns FALSE (0000ms, 0612ms total)
T68D4 000:865 JLINK_IsHalted()  returns FALSE (0000ms, 0612ms total)
T68D4 000:866 JLINK_IsHalted()  returns FALSE (0000ms, 0612ms total)
T68D4 000:868 JLINK_IsHalted()  returns FALSE (0000ms, 0612ms total)
T68D4 000:870 JLINK_IsHalted()  returns FALSE (0000ms, 0612ms total)
T68D4 000:871 JLINK_IsHalted()  returns FALSE (0000ms, 0612ms total)
T68D4 000:873 JLINK_IsHalted() -- CPU_ReadMem(2 bytes @ 0x20000000)  returns TRUE (0002ms, 0614ms total)
T68D4 000:875 JLINK_ReadReg(R15 (PC))  returns 0x20000000 (0000ms, 0612ms total)
T68D4 000:875 JLINK_ClrBPEx(BPHandle = 0x00000005)  returns 0x00 (0000ms, 0612ms total)
T68D4 000:875 JLINK_ReadReg(R0)  returns 0x00000000 (0000ms, 0612ms total)
T68D4 000:875 JLINK_WriteMem(0x20000164, 0x0400 Bytes, ...) - Data: E7 5D 42 EA 03 72 1B 09 77 54 49 1C 52 EA 03 07 ... -- CPU_WriteMem(1024 bytes @ 0x20000164)  returns 0x400 (0005ms, 0617ms total)
T68D4 000:880 JLINK_WriteReg(R0, 0x08000400)  returns 0x00 (0000ms, 0617ms total)
T68D4 000:880 JLINK_WriteReg(R1, 0x00000400)  returns 0x00 (0000ms, 0617ms total)
T68D4 000:880 JLINK_WriteReg(R2, 0x20000164)  returns 0x00 (0000ms, 0617ms total)
T68D4 000:880 JLINK_WriteReg(R3, 0x00000000)  returns 0x00 (0000ms, 0617ms total)
T68D4 000:880 JLINK_WriteReg(R4, 0x00000000)  returns 0x00 (0000ms, 0617ms total)
T68D4 000:880 JLINK_WriteReg(R5, 0x00000000)  returns 0x00 (0000ms, 0617ms total)
T68D4 000:880 JLINK_WriteReg(R6, 0x00000000)  returns 0x00 (0000ms, 0617ms total)
T68D4 000:880 JLINK_WriteReg(R7, 0x00000000)  returns 0x00 (0000ms, 0617ms total)
T68D4 000:880 JLINK_WriteReg(R8, 0x00000000)  returns 0x00 (0000ms, 0617ms total)
T68D4 000:880 JLINK_WriteReg(R9, 0x20000160)  returns 0x00 (0000ms, 0617ms total)
T68D4 000:880 JLINK_WriteReg(R10, 0x00000000)  returns 0x00 (0000ms, 0617ms total)
T68D4 000:880 JLINK_WriteReg(R11, 0x00000000)  returns 0x00 (0000ms, 0617ms total)
T68D4 000:880 JLINK_WriteReg(R12, 0x00000000)  returns 0x00 (0000ms, 0617ms total)
T68D4 000:880 JLINK_WriteReg(R13 (SP), 0x20001000)  returns 0x00 (0000ms, 0617ms total)
T68D4 000:880 JLINK_WriteReg(R14, 0x20000001)  returns 0x00 (0000ms, 0617ms total)
T68D4 000:880 JLINK_WriteReg(R15 (PC), 0x200000F4)  returns 0x00 (0000ms, 0617ms total)
T68D4 000:880 JLINK_WriteReg(XPSR, 0x01000000)  returns 0x00 (0000ms, 0617ms total)
T68D4 000:880 JLINK_WriteReg(MSP, 0x20001000)  returns 0x00 (0000ms, 0617ms total)
T68D4 000:880 JLINK_WriteReg(PSP, 0x20001000)  returns 0x00 (0000ms, 0617ms total)
T68D4 000:880 JLINK_WriteReg(CFBP, 0x00000000)  returns 0x00 (0000ms, 0617ms total)
T68D4 000:880 JLINK_SetBPEx(Addr = 0x20000000, Type = 0xFFFFFFF2)  returns 0x00000006 (0000ms, 0617ms total)
T68D4 000:880 JLINK_Go() (0001ms, 0618ms total)
T68D4 000:881 JLINK_IsHalted()  returns FALSE (0001ms, 0619ms total)
T68D4 000:886 JLINK_IsHalted()  returns FALSE (0000ms, 0618ms total)
T68D4 000:888 JLINK_IsHalted()  returns FALSE (0000ms, 0618ms total)
T68D4 000:889 JLINK_IsHalted()  returns FALSE (0000ms, 0618ms total)
T68D4 000:891 JLINK_IsHalted()  returns FALSE (0000ms, 0618ms total)
T68D4 000:892 JLINK_IsHalted()  returns FALSE (0000ms, 0618ms total)
T68D4 000:894 JLINK_IsHalted()  returns FALSE (0000ms, 0618ms total)
T68D4 000:896 JLINK_IsHalted()  returns FALSE (0000ms, 0618ms total)
T68D4 000:897 JLINK_IsHalted()  returns FALSE (0000ms, 0618ms total)
T68D4 000:899 JLINK_IsHalted()  returns FALSE (0000ms, 0618ms total)
T68D4 000:901 JLINK_IsHalted()  returns FALSE (0000ms, 0618ms total)
T68D4 000:904 JLINK_IsHalted()  returns FALSE (0000ms, 0618ms total)
T68D4 000:905 JLINK_IsHalted()  returns FALSE (0000ms, 0618ms total)
T68D4 000:907 JLINK_IsHalted()  returns FALSE (0000ms, 0618ms total)
T68D4 000:908 JLINK_IsHalted()  returns FALSE (0000ms, 0618ms total)
T68D4 000:910 JLINK_IsHalted()  returns FALSE (0000ms, 0618ms total)
T68D4 000:911 JLINK_IsHalted()  returns FALSE (0000ms, 0618ms total)
T68D4 000:913 JLINK_IsHalted() -- CPU_ReadMem(2 bytes @ 0x20000000)  returns TRUE (0002ms, 0620ms total)
T68D4 000:915 JLINK_ReadReg(R15 (PC))  returns 0x20000000 (0000ms, 0618ms total)
T68D4 000:915 JLINK_ClrBPEx(BPHandle = 0x00000006)  returns 0x00 (0000ms, 0618ms total)
T68D4 000:915 JLINK_ReadReg(R0)  returns 0x00000000 (0000ms, 0618ms total)
T68D4 000:915 JLINK_WriteMem(0x20000164, 0x0400 Bytes, ...) - Data: 28 1E A5 F1 01 05 F3 DC 20 46 FF F7 71 FD 20 78 ... -- CPU_WriteMem(1024 bytes @ 0x20000164)  returns 0x400 (0005ms, 0623ms total)
T68D4 000:920 JLINK_WriteReg(R0, 0x08000800)  returns 0x00 (0000ms, 0623ms total)
T68D4 000:920 JLINK_WriteReg(R1, 0x00000400)  returns 0x00 (0000ms, 0623ms total)
T68D4 000:920 JLINK_WriteReg(R2, 0x20000164)  returns 0x00 (0000ms, 0623ms total)
T68D4 000:920 JLINK_WriteReg(R3, 0x00000000)  returns 0x00 (0000ms, 0623ms total)
T68D4 000:920 JLINK_WriteReg(R4, 0x00000000)  returns 0x00 (0000ms, 0623ms total)
T68D4 000:920 JLINK_WriteReg(R5, 0x00000000)  returns 0x00 (0000ms, 0623ms total)
T68D4 000:920 JLINK_WriteReg(R6, 0x00000000)  returns 0x00 (0000ms, 0623ms total)
T68D4 000:920 JLINK_WriteReg(R7, 0x00000000)  returns 0x00 (0000ms, 0623ms total)
T68D4 000:920 JLINK_WriteReg(R8, 0x00000000)  returns 0x00 (0000ms, 0623ms total)
T68D4 000:920 JLINK_WriteReg(R9, 0x20000160)  returns 0x00 (0000ms, 0623ms total)
T68D4 000:920 JLINK_WriteReg(R10, 0x00000000)  returns 0x00 (0000ms, 0623ms total)
T68D4 000:920 JLINK_WriteReg(R11, 0x00000000)  returns 0x00 (0000ms, 0623ms total)
T68D4 000:920 JLINK_WriteReg(R12, 0x00000000)  returns 0x00 (0000ms, 0623ms total)
T68D4 000:920 JLINK_WriteReg(R13 (SP), 0x20001000)  returns 0x00 (0000ms, 0623ms total)
T68D4 000:920 JLINK_WriteReg(R14, 0x20000001)  returns 0x00 (0000ms, 0623ms total)
T68D4 000:920 JLINK_WriteReg(R15 (PC), 0x200000F4)  returns 0x00 (0000ms, 0623ms total)
T68D4 000:920 JLINK_WriteReg(XPSR, 0x01000000)  returns 0x00 (0000ms, 0623ms total)
T68D4 000:920 JLINK_WriteReg(MSP, 0x20001000)  returns 0x00 (0000ms, 0623ms total)
T68D4 000:921 JLINK_WriteReg(PSP, 0x20001000)  returns 0x00 (0000ms, 0624ms total)
T68D4 000:921 JLINK_WriteReg(CFBP, 0x00000000)  returns 0x00 (0000ms, 0624ms total)
T68D4 000:921 JLINK_SetBPEx(Addr = 0x20000000, Type = 0xFFFFFFF2)  returns 0x00000007 (0000ms, 0624ms total)
T68D4 000:921 JLINK_Go() (0001ms, 0625ms total)
T68D4 000:922 JLINK_IsHalted()  returns FALSE (0000ms, 0625ms total)
T68D4 000:924 JLINK_IsHalted()  returns FALSE (0000ms, 0625ms total)
T68D4 000:925 JLINK_IsHalted()  returns FALSE (0000ms, 0625ms total)
T68D4 000:927 JLINK_IsHalted()  returns FALSE (0000ms, 0625ms total)
T68D4 000:929 JLINK_IsHalted()  returns FALSE (0000ms, 0625ms total)
T68D4 000:930 JLINK_IsHalted()  returns FALSE (0000ms, 0625ms total)
T68D4 000:932 JLINK_IsHalted()  returns FALSE (0000ms, 0625ms total)
T68D4 000:934 JLINK_IsHalted()  returns FALSE (0000ms, 0625ms total)
T68D4 000:935 JLINK_IsHalted()  returns FALSE (0000ms, 0625ms total)
T68D4 000:937 JLINK_IsHalted()  returns FALSE (0000ms, 0625ms total)
T68D4 000:938 JLINK_IsHalted()  returns FALSE (0000ms, 0625ms total)
T68D4 000:940 JLINK_IsHalted()  returns FALSE (0000ms, 0625ms total)
T68D4 000:941 JLINK_IsHalted()  returns FALSE (0000ms, 0625ms total)
T68D4 000:943 JLINK_IsHalted()  returns FALSE (0000ms, 0625ms total)
T68D4 000:944 JLINK_IsHalted()  returns FALSE (0000ms, 0625ms total)
T68D4 000:946 JLINK_IsHalted()  returns FALSE (0000ms, 0625ms total)
T68D4 000:948 JLINK_IsHalted()  returns FALSE (0000ms, 0625ms total)
T68D4 000:951 JLINK_IsHalted()  returns FALSE (0000ms, 0625ms total)
T68D4 000:953 JLINK_IsHalted() -- CPU_ReadMem(2 bytes @ 0x20000000)  returns TRUE (0002ms, 0627ms total)
T68D4 000:955 JLINK_ReadReg(R15 (PC))  returns 0x20000000 (0000ms, 0625ms total)
T68D4 000:955 JLINK_ClrBPEx(BPHandle = 0x00000007)  returns 0x00 (0000ms, 0625ms total)
T68D4 000:955 JLINK_ReadReg(R0)  returns 0x00000000 (0000ms, 0625ms total)
T68D4 000:955 JLINK_WriteMem(0x20000164, 0x0400 Bytes, ...) - Data: 19 20 07 F0 BF F9 4F F4 FC 60 04 21 DC 23 40 F2 ... -- CPU_WriteMem(1024 bytes @ 0x20000164)  returns 0x400 (0005ms, 0630ms total)
T68D4 000:960 JLINK_WriteReg(R0, 0x08000C00)  returns 0x00 (0000ms, 0630ms total)
T68D4 000:960 JLINK_WriteReg(R1, 0x00000400)  returns 0x00 (0000ms, 0630ms total)
T68D4 000:960 JLINK_WriteReg(R2, 0x20000164)  returns 0x00 (0000ms, 0630ms total)
T68D4 000:960 JLINK_WriteReg(R3, 0x00000000)  returns 0x00 (0000ms, 0630ms total)
T68D4 000:960 JLINK_WriteReg(R4, 0x00000000)  returns 0x00 (0000ms, 0630ms total)
T68D4 000:960 JLINK_WriteReg(R5, 0x00000000)  returns 0x00 (0000ms, 0630ms total)
T68D4 000:960 JLINK_WriteReg(R6, 0x00000000)  returns 0x00 (0000ms, 0630ms total)
T68D4 000:960 JLINK_WriteReg(R7, 0x00000000)  returns 0x00 (0000ms, 0630ms total)
T68D4 000:960 JLINK_WriteReg(R8, 0x00000000)  returns 0x00 (0000ms, 0630ms total)
T68D4 000:960 JLINK_WriteReg(R9, 0x20000160)  returns 0x00 (0000ms, 0630ms total)
T68D4 000:960 JLINK_WriteReg(R10, 0x00000000)  returns 0x00 (0000ms, 0630ms total)
T68D4 000:960 JLINK_WriteReg(R11, 0x00000000)  returns 0x00 (0000ms, 0630ms total)
T68D4 000:960 JLINK_WriteReg(R12, 0x00000000)  returns 0x00 (0000ms, 0630ms total)
T68D4 000:960 JLINK_WriteReg(R13 (SP), 0x20001000)  returns 0x00 (0000ms, 0630ms total)
T68D4 000:960 JLINK_WriteReg(R14, 0x20000001)  returns 0x00 (0000ms, 0630ms total)
T68D4 000:960 JLINK_WriteReg(R15 (PC), 0x200000F4)  returns 0x00 (0000ms, 0630ms total)
T68D4 000:960 JLINK_WriteReg(XPSR, 0x01000000)  returns 0x00 (0000ms, 0630ms total)
T68D4 000:960 JLINK_WriteReg(MSP, 0x20001000)  returns 0x00 (0000ms, 0630ms total)
T68D4 000:960 JLINK_WriteReg(PSP, 0x20001000)  returns 0x00 (0000ms, 0630ms total)
T68D4 000:960 JLINK_WriteReg(CFBP, 0x00000000)  returns 0x00 (0000ms, 0630ms total)
T68D4 000:960 JLINK_SetBPEx(Addr = 0x20000000, Type = 0xFFFFFFF2)  returns 0x00000008 (0000ms, 0630ms total)
T68D4 000:960 JLINK_Go() (0001ms, 0631ms total)
T68D4 000:961 JLINK_IsHalted()  returns FALSE (0001ms, 0632ms total)
T68D4 000:964 JLINK_IsHalted()  returns FALSE (0000ms, 0631ms total)
T68D4 000:966 JLINK_IsHalted()  returns FALSE (0000ms, 0631ms total)
T68D4 000:968 JLINK_IsHalted()  returns FALSE (0000ms, 0631ms total)
T68D4 000:969 JLINK_IsHalted()  returns FALSE (0000ms, 0631ms total)
T68D4 000:970 JLINK_IsHalted()  returns FALSE (0000ms, 0631ms total)
T68D4 000:972 JLINK_IsHalted()  returns FALSE (0000ms, 0631ms total)
T68D4 000:974 JLINK_IsHalted()  returns FALSE (0000ms, 0631ms total)
T68D4 000:975 JLINK_IsHalted()  returns FALSE (0000ms, 0631ms total)
T68D4 000:977 JLINK_IsHalted()  returns FALSE (0000ms, 0631ms total)
T68D4 000:979 JLINK_IsHalted()  returns FALSE (0000ms, 0631ms total)
T68D4 000:981 JLINK_IsHalted()  returns FALSE (0000ms, 0631ms total)
T68D4 000:983 JLINK_IsHalted()  returns FALSE (0000ms, 0631ms total)
T68D4 000:984 JLINK_IsHalted()  returns FALSE (0000ms, 0631ms total)
T68D4 000:986 JLINK_IsHalted()  returns FALSE (0000ms, 0631ms total)
T68D4 000:987 JLINK_IsHalted()  returns FALSE (0000ms, 0631ms total)
T68D4 000:989 JLINK_IsHalted()  returns FALSE (0000ms, 0631ms total)
T68D4 000:991 JLINK_IsHalted()  returns FALSE (0000ms, 0631ms total)
T68D4 000:992 JLINK_IsHalted()  returns FALSE (0000ms, 0631ms total)
T68D4 000:994 JLINK_IsHalted() -- CPU_ReadMem(2 bytes @ 0x20000000)  returns TRUE (0002ms, 0633ms total)
T68D4 000:996 JLINK_ReadReg(R15 (PC))  returns 0x20000000 (0000ms, 0631ms total)
T68D4 000:996 JLINK_ClrBPEx(BPHandle = 0x00000008)  returns 0x00 (0000ms, 0631ms total)
T68D4 000:996 JLINK_ReadReg(R0)  returns 0x00000000 (0000ms, 0631ms total)
T68D4 000:997 JLINK_WriteMem(0x20000164, 0x0400 Bytes, ...) - Data: 63 11 88 42 0D D1 2C 20 43 49 08 81 2B 20 48 81 ... -- CPU_WriteMem(1024 bytes @ 0x20000164)  returns 0x400 (0005ms, 0636ms total)
T68D4 001:002 JLINK_WriteReg(R0, 0x08001000)  returns 0x00 (0000ms, 0636ms total)
T68D4 001:002 JLINK_WriteReg(R1, 0x00000400)  returns 0x00 (0000ms, 0636ms total)
T68D4 001:002 JLINK_WriteReg(R2, 0x20000164)  returns 0x00 (0000ms, 0636ms total)
T68D4 001:002 JLINK_WriteReg(R3, 0x00000000)  returns 0x00 (0000ms, 0636ms total)
T68D4 001:002 JLINK_WriteReg(R4, 0x00000000)  returns 0x00 (0000ms, 0636ms total)
T68D4 001:002 JLINK_WriteReg(R5, 0x00000000)  returns 0x00 (0000ms, 0636ms total)
T68D4 001:002 JLINK_WriteReg(R6, 0x00000000)  returns 0x00 (0000ms, 0636ms total)
T68D4 001:002 JLINK_WriteReg(R7, 0x00000000)  returns 0x00 (0000ms, 0636ms total)
T68D4 001:002 JLINK_WriteReg(R8, 0x00000000)  returns 0x00 (0000ms, 0636ms total)
T68D4 001:002 JLINK_WriteReg(R9, 0x20000160)  returns 0x00 (0000ms, 0636ms total)
T68D4 001:002 JLINK_WriteReg(R10, 0x00000000)  returns 0x00 (0000ms, 0636ms total)
T68D4 001:002 JLINK_WriteReg(R11, 0x00000000)  returns 0x00 (0000ms, 0636ms total)
T68D4 001:002 JLINK_WriteReg(R12, 0x00000000)  returns 0x00 (0000ms, 0636ms total)
T68D4 001:002 JLINK_WriteReg(R13 (SP), 0x20001000)  returns 0x00 (0000ms, 0636ms total)
T68D4 001:002 JLINK_WriteReg(R14, 0x20000001)  returns 0x00 (0000ms, 0636ms total)
T68D4 001:002 JLINK_WriteReg(R15 (PC), 0x200000F4)  returns 0x00 (0000ms, 0636ms total)
T68D4 001:002 JLINK_WriteReg(XPSR, 0x01000000)  returns 0x00 (0000ms, 0636ms total)
T68D4 001:002 JLINK_WriteReg(MSP, 0x20001000)  returns 0x00 (0000ms, 0636ms total)
T68D4 001:002 JLINK_WriteReg(PSP, 0x20001000)  returns 0x00 (0000ms, 0636ms total)
T68D4 001:002 JLINK_WriteReg(CFBP, 0x00000000)  returns 0x00 (0000ms, 0636ms total)
T68D4 001:002 JLINK_SetBPEx(Addr = 0x20000000, Type = 0xFFFFFFF2)  returns 0x00000009 (0000ms, 0636ms total)
T68D4 001:002 JLINK_Go() (0001ms, 0637ms total)
T68D4 001:003 JLINK_IsHalted()  returns FALSE (0000ms, 0637ms total)
T68D4 001:006 JLINK_IsHalted()  returns FALSE (0000ms, 0637ms total)
T68D4 001:008 JLINK_IsHalted()  returns FALSE (0000ms, 0637ms total)
T68D4 001:009 JLINK_IsHalted()  returns FALSE (0000ms, 0637ms total)
T68D4 001:011 JLINK_IsHalted()  returns FALSE (0000ms, 0637ms total)
T68D4 001:013 JLINK_IsHalted()  returns FALSE (0000ms, 0637ms total)
T68D4 001:015 JLINK_IsHalted()  returns FALSE (0000ms, 0637ms total)
T68D4 001:017 JLINK_IsHalted()  returns FALSE (0000ms, 0637ms total)
T68D4 001:018 JLINK_IsHalted()  returns FALSE (0000ms, 0637ms total)
T68D4 001:020 JLINK_IsHalted()  returns FALSE (0000ms, 0637ms total)
T68D4 001:021 JLINK_IsHalted()  returns FALSE (0000ms, 0637ms total)
T68D4 001:023 JLINK_IsHalted()  returns FALSE (0000ms, 0637ms total)
T68D4 001:025 JLINK_IsHalted()  returns FALSE (0000ms, 0637ms total)
T68D4 001:026 JLINK_IsHalted()  returns FALSE (0000ms, 0637ms total)
T68D4 001:028 JLINK_IsHalted()  returns FALSE (0000ms, 0637ms total)
T68D4 001:029 JLINK_IsHalted()  returns FALSE (0000ms, 0637ms total)
T68D4 001:031 JLINK_IsHalted()  returns FALSE (0000ms, 0637ms total)
T68D4 001:033 JLINK_IsHalted()  returns FALSE (0000ms, 0637ms total)
T68D4 001:034 JLINK_IsHalted() -- CPU_ReadMem(2 bytes @ 0x20000000)  returns TRUE (0002ms, 0639ms total)
T68D4 001:036 JLINK_ReadReg(R15 (PC))  returns 0x20000000 (0000ms, 0637ms total)
T68D4 001:036 JLINK_ClrBPEx(BPHandle = 0x00000009)  returns 0x00 (0000ms, 0637ms total)
T68D4 001:036 JLINK_ReadReg(R0)  returns 0x00000000 (0000ms, 0637ms total)
T68D4 001:037 JLINK_WriteMem(0x20000164, 0x0400 Bytes, ...) - Data: 12 E0 0D 48 80 79 01 28 04 D1 0B 48 00 88 40 1E ... -- CPU_WriteMem(1024 bytes @ 0x20000164)  returns 0x400 (0005ms, 0642ms total)
T68D4 001:042 JLINK_WriteReg(R0, 0x08001400)  returns 0x00 (0000ms, 0642ms total)
T68D4 001:042 JLINK_WriteReg(R1, 0x00000400)  returns 0x00 (0000ms, 0642ms total)
T68D4 001:042 JLINK_WriteReg(R2, 0x20000164)  returns 0x00 (0000ms, 0642ms total)
T68D4 001:042 JLINK_WriteReg(R3, 0x00000000)  returns 0x00 (0000ms, 0642ms total)
T68D4 001:042 JLINK_WriteReg(R4, 0x00000000)  returns 0x00 (0000ms, 0642ms total)
T68D4 001:042 JLINK_WriteReg(R5, 0x00000000)  returns 0x00 (0000ms, 0642ms total)
T68D4 001:042 JLINK_WriteReg(R6, 0x00000000)  returns 0x00 (0000ms, 0642ms total)
T68D4 001:042 JLINK_WriteReg(R7, 0x00000000)  returns 0x00 (0000ms, 0642ms total)
T68D4 001:042 JLINK_WriteReg(R8, 0x00000000)  returns 0x00 (0000ms, 0642ms total)
T68D4 001:042 JLINK_WriteReg(R9, 0x20000160)  returns 0x00 (0000ms, 0642ms total)
T68D4 001:042 JLINK_WriteReg(R10, 0x00000000)  returns 0x00 (0000ms, 0642ms total)
T68D4 001:042 JLINK_WriteReg(R11, 0x00000000)  returns 0x00 (0000ms, 0642ms total)
T68D4 001:042 JLINK_WriteReg(R12, 0x00000000)  returns 0x00 (0000ms, 0642ms total)
T68D4 001:042 JLINK_WriteReg(R13 (SP), 0x20001000)  returns 0x00 (0000ms, 0642ms total)
T68D4 001:042 JLINK_WriteReg(R14, 0x20000001)  returns 0x00 (0000ms, 0642ms total)
T68D4 001:042 JLINK_WriteReg(R15 (PC), 0x200000F4)  returns 0x00 (0000ms, 0642ms total)
T68D4 001:042 JLINK_WriteReg(XPSR, 0x01000000)  returns 0x00 (0000ms, 0642ms total)
T68D4 001:042 JLINK_WriteReg(MSP, 0x20001000)  returns 0x00 (0000ms, 0642ms total)
T68D4 001:042 JLINK_WriteReg(PSP, 0x20001000)  returns 0x00 (0000ms, 0642ms total)
T68D4 001:042 JLINK_WriteReg(CFBP, 0x00000000)  returns 0x00 (0000ms, 0642ms total)
T68D4 001:042 JLINK_SetBPEx(Addr = 0x20000000, Type = 0xFFFFFFF2)  returns 0x0000000A (0000ms, 0642ms total)
T68D4 001:042 JLINK_Go() (0001ms, 0643ms total)
T68D4 001:043 JLINK_IsHalted()  returns FALSE (0000ms, 0643ms total)
T68D4 001:045 JLINK_IsHalted()  returns FALSE (0000ms, 0643ms total)
T68D4 001:046 JLINK_IsHalted()  returns FALSE (0000ms, 0643ms total)
T68D4 001:048 JLINK_IsHalted()  returns FALSE (0000ms, 0643ms total)
T68D4 001:050 JLINK_IsHalted()  returns FALSE (0000ms, 0643ms total)
T68D4 001:051 JLINK_IsHalted()  returns FALSE (0000ms, 0643ms total)
T68D4 001:053 JLINK_IsHalted()  returns FALSE (0000ms, 0643ms total)
T68D4 001:055 JLINK_IsHalted()  returns FALSE (0000ms, 0643ms total)
T68D4 001:056 JLINK_IsHalted()  returns FALSE (0000ms, 0643ms total)
T68D4 001:058 JLINK_IsHalted()  returns FALSE (0000ms, 0643ms total)
T68D4 001:059 JLINK_IsHalted()  returns FALSE (0000ms, 0643ms total)
T68D4 001:061 JLINK_IsHalted()  returns FALSE (0000ms, 0643ms total)
T68D4 001:062 JLINK_IsHalted()  returns FALSE (0000ms, 0643ms total)
T68D4 001:064 JLINK_IsHalted()  returns FALSE (0000ms, 0643ms total)
T68D4 001:066 JLINK_IsHalted()  returns FALSE (0000ms, 0643ms total)
T68D4 001:067 JLINK_IsHalted()  returns FALSE (0000ms, 0643ms total)
T68D4 001:069 JLINK_IsHalted()  returns FALSE (0000ms, 0643ms total)
T68D4 001:070 JLINK_IsHalted()  returns FALSE (0000ms, 0643ms total)
T68D4 001:072 JLINK_IsHalted()  returns FALSE (0000ms, 0643ms total)
T68D4 001:074 JLINK_IsHalted() -- CPU_ReadMem(2 bytes @ 0x20000000)  returns TRUE (0002ms, 0645ms total)
T68D4 001:076 JLINK_ReadReg(R15 (PC))  returns 0x20000000 (0000ms, 0643ms total)
T68D4 001:076 JLINK_ClrBPEx(BPHandle = 0x0000000A)  returns 0x00 (0000ms, 0643ms total)
T68D4 001:076 JLINK_ReadReg(R0)  returns 0x00000000 (0000ms, 0643ms total)
T68D4 001:076 JLINK_WriteMem(0x20000164, 0x0400 Bytes, ...) - Data: C9 FD 30 20 03 F0 C0 FD 30 20 03 F0 BD FD C7 20 ... -- CPU_WriteMem(1024 bytes @ 0x20000164)  returns 0x400 (0005ms, 0648ms total)
T68D4 001:081 JLINK_WriteReg(R0, 0x08001800)  returns 0x00 (0000ms, 0648ms total)
T68D4 001:081 JLINK_WriteReg(R1, 0x00000400)  returns 0x00 (0000ms, 0648ms total)
T68D4 001:081 JLINK_WriteReg(R2, 0x20000164)  returns 0x00 (0000ms, 0648ms total)
T68D4 001:081 JLINK_WriteReg(R3, 0x00000000)  returns 0x00 (0000ms, 0648ms total)
T68D4 001:081 JLINK_WriteReg(R4, 0x00000000)  returns 0x00 (0000ms, 0648ms total)
T68D4 001:081 JLINK_WriteReg(R5, 0x00000000)  returns 0x00 (0000ms, 0648ms total)
T68D4 001:081 JLINK_WriteReg(R6, 0x00000000)  returns 0x00 (0000ms, 0648ms total)
T68D4 001:081 JLINK_WriteReg(R7, 0x00000000)  returns 0x00 (0000ms, 0648ms total)
T68D4 001:081 JLINK_WriteReg(R8, 0x00000000)  returns 0x00 (0000ms, 0648ms total)
T68D4 001:081 JLINK_WriteReg(R9, 0x20000160)  returns 0x00 (0000ms, 0648ms total)
T68D4 001:081 JLINK_WriteReg(R10, 0x00000000)  returns 0x00 (0000ms, 0648ms total)
T68D4 001:081 JLINK_WriteReg(R11, 0x00000000)  returns 0x00 (0001ms, 0649ms total)
T68D4 001:082 JLINK_WriteReg(R12, 0x00000000)  returns 0x00 (0000ms, 0649ms total)
T68D4 001:082 JLINK_WriteReg(R13 (SP), 0x20001000)  returns 0x00 (0000ms, 0649ms total)
T68D4 001:082 JLINK_WriteReg(R14, 0x20000001)  returns 0x00 (0000ms, 0649ms total)
T68D4 001:082 JLINK_WriteReg(R15 (PC), 0x200000F4)  returns 0x00 (0000ms, 0649ms total)
T68D4 001:082 JLINK_WriteReg(XPSR, 0x01000000)  returns 0x00 (0000ms, 0649ms total)
T68D4 001:082 JLINK_WriteReg(MSP, 0x20001000)  returns 0x00 (0000ms, 0649ms total)
T68D4 001:082 JLINK_WriteReg(PSP, 0x20001000)  returns 0x00 (0000ms, 0649ms total)
T68D4 001:082 JLINK_WriteReg(CFBP, 0x00000000)  returns 0x00 (0000ms, 0649ms total)
T68D4 001:082 JLINK_SetBPEx(Addr = 0x20000000, Type = 0xFFFFFFF2)  returns 0x0000000B (0000ms, 0649ms total)
T68D4 001:082 JLINK_Go() (0000ms, 0649ms total)
T68D4 001:082 JLINK_IsHalted()  returns FALSE (0001ms, 0650ms total)
T68D4 001:085 JLINK_IsHalted()  returns FALSE (0000ms, 0649ms total)
T68D4 001:087 JLINK_IsHalted()  returns FALSE (0000ms, 0649ms total)
T68D4 001:088 JLINK_IsHalted()  returns FALSE (0000ms, 0649ms total)
T68D4 001:090 JLINK_IsHalted()  returns FALSE (0000ms, 0649ms total)
T68D4 001:091 JLINK_IsHalted()  returns FALSE (0000ms, 0649ms total)
T68D4 001:093 JLINK_IsHalted()  returns FALSE (0000ms, 0649ms total)
T68D4 001:095 JLINK_IsHalted()  returns FALSE (0000ms, 0649ms total)
T68D4 001:096 JLINK_IsHalted()  returns FALSE (0000ms, 0649ms total)
T68D4 001:098 JLINK_IsHalted()  returns FALSE (0000ms, 0649ms total)
T68D4 001:099 JLINK_IsHalted()  returns FALSE (0000ms, 0649ms total)
T68D4 001:101 JLINK_IsHalted()  returns FALSE (0000ms, 0649ms total)
T68D4 001:102 JLINK_IsHalted()  returns FALSE (0000ms, 0649ms total)
T68D4 001:104 JLINK_IsHalted()  returns FALSE (0000ms, 0649ms total)
T68D4 001:106 JLINK_IsHalted()  returns FALSE (0000ms, 0649ms total)
T68D4 001:109 JLINK_IsHalted()  returns FALSE (0000ms, 0649ms total)
T68D4 001:111 JLINK_IsHalted()  returns FALSE (0000ms, 0649ms total)
T68D4 001:112 JLINK_IsHalted()  returns FALSE (0000ms, 0649ms total)
T68D4 001:114 JLINK_IsHalted() -- CPU_ReadMem(2 bytes @ 0x20000000)  returns TRUE (0002ms, 0651ms total)
T68D4 001:116 JLINK_ReadReg(R15 (PC))  returns 0x20000000 (0000ms, 0649ms total)
T68D4 001:116 JLINK_ClrBPEx(BPHandle = 0x0000000B)  returns 0x00 (0000ms, 0649ms total)
T68D4 001:116 JLINK_ReadReg(R0)  returns 0x00000000 (0000ms, 0649ms total)
T68D4 001:116 JLINK_WriteMem(0x20000164, 0x0400 Bytes, ...) - Data: 5D 20 03 F0 C1 FB 00 20 03 F0 BE FB B1 20 03 F0 ... -- CPU_WriteMem(1024 bytes @ 0x20000164)  returns 0x400 (0005ms, 0654ms total)
T68D4 001:121 JLINK_WriteReg(R0, 0x08001C00)  returns 0x00 (0000ms, 0654ms total)
T68D4 001:121 JLINK_WriteReg(R1, 0x00000400)  returns 0x00 (0001ms, 0655ms total)
T68D4 001:122 JLINK_WriteReg(R2, 0x20000164)  returns 0x00 (0000ms, 0655ms total)
T68D4 001:122 JLINK_WriteReg(R3, 0x00000000)  returns 0x00 (0000ms, 0655ms total)
T68D4 001:122 JLINK_WriteReg(R4, 0x00000000)  returns 0x00 (0000ms, 0655ms total)
T68D4 001:122 JLINK_WriteReg(R5, 0x00000000)  returns 0x00 (0000ms, 0655ms total)
T68D4 001:122 JLINK_WriteReg(R6, 0x00000000)  returns 0x00 (0000ms, 0655ms total)
T68D4 001:122 JLINK_WriteReg(R7, 0x00000000)  returns 0x00 (0000ms, 0655ms total)
T68D4 001:122 JLINK_WriteReg(R8, 0x00000000)  returns 0x00 (0000ms, 0655ms total)
T68D4 001:122 JLINK_WriteReg(R9, 0x20000160)  returns 0x00 (0000ms, 0655ms total)
T68D4 001:122 JLINK_WriteReg(R10, 0x00000000)  returns 0x00 (0000ms, 0655ms total)
T68D4 001:122 JLINK_WriteReg(R11, 0x00000000)  returns 0x00 (0000ms, 0655ms total)
T68D4 001:122 JLINK_WriteReg(R12, 0x00000000)  returns 0x00 (0000ms, 0655ms total)
T68D4 001:122 JLINK_WriteReg(R13 (SP), 0x20001000)  returns 0x00 (0000ms, 0655ms total)
T68D4 001:122 JLINK_WriteReg(R14, 0x20000001)  returns 0x00 (0000ms, 0655ms total)
T68D4 001:122 JLINK_WriteReg(R15 (PC), 0x200000F4)  returns 0x00 (0000ms, 0655ms total)
T68D4 001:122 JLINK_WriteReg(XPSR, 0x01000000)  returns 0x00 (0000ms, 0655ms total)
T68D4 001:122 JLINK_WriteReg(MSP, 0x20001000)  returns 0x00 (0000ms, 0655ms total)
T68D4 001:122 JLINK_WriteReg(PSP, 0x20001000)  returns 0x00 (0000ms, 0655ms total)
T68D4 001:122 JLINK_WriteReg(CFBP, 0x00000000)  returns 0x00 (0000ms, 0655ms total)
T68D4 001:122 JLINK_SetBPEx(Addr = 0x20000000, Type = 0xFFFFFFF2)  returns 0x0000000C (0000ms, 0655ms total)
T68D4 001:122 JLINK_Go() (0001ms, 0656ms total)
T68D4 001:123 JLINK_IsHalted()  returns FALSE (0000ms, 0656ms total)
T68D4 001:125 JLINK_IsHalted()  returns FALSE (0000ms, 0656ms total)
T68D4 001:127 JLINK_IsHalted()  returns FALSE (0000ms, 0656ms total)
T68D4 001:129 JLINK_IsHalted()  returns FALSE (0000ms, 0656ms total)
T68D4 001:130 JLINK_IsHalted()  returns FALSE (0000ms, 0656ms total)
T68D4 001:132 JLINK_IsHalted()  returns FALSE (0000ms, 0656ms total)
T68D4 001:134 JLINK_IsHalted()  returns FALSE (0000ms, 0656ms total)
T68D4 001:135 JLINK_IsHalted()  returns FALSE (0000ms, 0656ms total)
T68D4 001:137 JLINK_IsHalted()  returns FALSE (0000ms, 0656ms total)
T68D4 001:139 JLINK_IsHalted()  returns FALSE (0000ms, 0656ms total)
T68D4 001:140 JLINK_IsHalted()  returns FALSE (0000ms, 0656ms total)
T68D4 001:142 JLINK_IsHalted()  returns FALSE (0000ms, 0656ms total)
T68D4 001:144 JLINK_IsHalted()  returns FALSE (0000ms, 0656ms total)
T68D4 001:145 JLINK_IsHalted()  returns FALSE (0000ms, 0656ms total)
T68D4 001:147 JLINK_IsHalted()  returns FALSE (0000ms, 0656ms total)
T68D4 001:148 JLINK_IsHalted()  returns FALSE (0000ms, 0656ms total)
T68D4 001:150 JLINK_IsHalted()  returns FALSE (0000ms, 0656ms total)
T68D4 001:152 JLINK_IsHalted()  returns FALSE (0000ms, 0656ms total)
T68D4 001:154 JLINK_IsHalted() -- CPU_ReadMem(2 bytes @ 0x20000000)  returns TRUE (0002ms, 0658ms total)
T68D4 001:156 JLINK_ReadReg(R15 (PC))  returns 0x20000000 (0000ms, 0656ms total)
T68D4 001:156 JLINK_ClrBPEx(BPHandle = 0x0000000C)  returns 0x00 (0000ms, 0656ms total)
T68D4 001:156 JLINK_ReadReg(R0)  returns 0x00000000 (0000ms, 0656ms total)
T68D4 001:156 JLINK_WriteMem(0x20000164, 0x0400 Bytes, ...) - Data: C3 F9 00 20 03 F0 C0 F9 50 20 03 F0 BD F9 00 20 ... -- CPU_WriteMem(1024 bytes @ 0x20000164)  returns 0x400 (0005ms, 0661ms total)
T68D4 001:161 JLINK_WriteReg(R0, 0x08002000)  returns 0x00 (0000ms, 0661ms total)
T68D4 001:161 JLINK_WriteReg(R1, 0x00000400)  returns 0x00 (0000ms, 0661ms total)
T68D4 001:161 JLINK_WriteReg(R2, 0x20000164)  returns 0x00 (0000ms, 0661ms total)
T68D4 001:161 JLINK_WriteReg(R3, 0x00000000)  returns 0x00 (0000ms, 0661ms total)
T68D4 001:161 JLINK_WriteReg(R4, 0x00000000)  returns 0x00 (0000ms, 0661ms total)
T68D4 001:161 JLINK_WriteReg(R5, 0x00000000)  returns 0x00 (0000ms, 0661ms total)
T68D4 001:161 JLINK_WriteReg(R6, 0x00000000)  returns 0x00 (0000ms, 0661ms total)
T68D4 001:161 JLINK_WriteReg(R7, 0x00000000)  returns 0x00 (0000ms, 0661ms total)
T68D4 001:161 JLINK_WriteReg(R8, 0x00000000)  returns 0x00 (0000ms, 0661ms total)
T68D4 001:161 JLINK_WriteReg(R9, 0x20000160)  returns 0x00 (0000ms, 0661ms total)
T68D4 001:161 JLINK_WriteReg(R10, 0x00000000)  returns 0x00 (0000ms, 0661ms total)
T68D4 001:161 JLINK_WriteReg(R11, 0x00000000)  returns 0x00 (0000ms, 0661ms total)
T68D4 001:161 JLINK_WriteReg(R12, 0x00000000)  returns 0x00 (0000ms, 0661ms total)
T68D4 001:161 JLINK_WriteReg(R13 (SP), 0x20001000)  returns 0x00 (0000ms, 0661ms total)
T68D4 001:161 JLINK_WriteReg(R14, 0x20000001)  returns 0x00 (0000ms, 0661ms total)
T68D4 001:161 JLINK_WriteReg(R15 (PC), 0x200000F4)  returns 0x00 (0000ms, 0661ms total)
T68D4 001:161 JLINK_WriteReg(XPSR, 0x01000000)  returns 0x00 (0000ms, 0661ms total)
T68D4 001:161 JLINK_WriteReg(MSP, 0x20001000)  returns 0x00 (0000ms, 0661ms total)
T68D4 001:161 JLINK_WriteReg(PSP, 0x20001000)  returns 0x00 (0000ms, 0661ms total)
T68D4 001:161 JLINK_WriteReg(CFBP, 0x00000000)  returns 0x00 (0000ms, 0661ms total)
T68D4 001:161 JLINK_SetBPEx(Addr = 0x20000000, Type = 0xFFFFFFF2)  returns 0x0000000D (0000ms, 0661ms total)
T68D4 001:162 JLINK_Go() (0001ms, 0663ms total)
